
**** 04/24/23 13:58:59 ******* PSpice Lite (March 2016) ******* ID# 10813 ****

 ** Profile: "SCHEMATIC1-mid1s"  [ C:\Users\82104\Desktop\workplace\circuit\mid1-pspicefiles\schematic1\mid1s.sim ] 


 ****     CIRCUIT DESCRIPTION


******************************************************************************




** Creating circuit file "mid1s.cir" 
** WARNING: THIS AUTOMATICALLY GENERATED FILE MAY BE OVERWRITTEN BY SUBSEQUENT SIMULATIONS

*Libraries: 
* Profile Libraries :
* Local Libraries :
* From [PSPICE NETLIST] section of C:\Users\82104\AppData\Roaming\SPB_Data\cdssetup\OrCAD_PSpice\17.2.0\PSpice.ini file:
.lib "nomd.lib" 

*Analysis directives: 
.TRAN  0 10ms 0 
.OPTIONS ADVCONV
.PROBE64 V(alias(*)) I(alias(*)) W(alias(*)) D(alias(*)) NOISE(alias(*)) 
.INC "..\SCHEMATIC1.net" 



**** INCLUDING SCHEMATIC1.net ****
* source MID1
V_V1         N00101 0 10Vdc
R_R1         N00101 N00108  1k TC=0,0 
C_C1         0 N00108  1u IC=0 TC=0,0 

**** RESUMING mid1s.cir ****
.END

**** 04/24/23 13:58:59 ******* PSpice Lite (March 2016) ******* ID# 10813 ****

 ** Profile: "SCHEMATIC1-mid1s"  [ C:\Users\82104\Desktop\workplace\circuit\mid1-pspicefiles\schematic1\mid1s.sim ] 


 ****     INITIAL TRANSIENT SOLUTION       TEMPERATURE =   27.000 DEG C


******************************************************************************



 NODE   VOLTAGE     NODE   VOLTAGE     NODE   VOLTAGE     NODE   VOLTAGE


(N00101)   10.0000 (N00108) 20.00E-06 




    VOLTAGE SOURCE CURRENTS
    NAME         CURRENT

    V_V1        -1.000E-02

    TOTAL POWER DISSIPATION   1.00E-01  WATTS



          JOB CONCLUDED

**** 04/24/23 13:58:59 ******* PSpice Lite (March 2016) ******* ID# 10813 ****

 ** Profile: "SCHEMATIC1-mid1s"  [ C:\Users\82104\Desktop\workplace\circuit\mid1-pspicefiles\schematic1\mid1s.sim ] 


 ****     JOB STATISTICS SUMMARY


******************************************************************************



  Total job time (using Solver 1)   =        0.00
